Semiconductor Device Operating Points:
                        --- BSIM3 MOSFETS ---
Name:        m6          m7          m0          m2          m1
Model:      cmosn       cmosn       cmosn       cmosn       cmosn
Id:        1.45e-04    5.00e-06    4.61e-05    2.30e-05    2.30e-05
Vgs:       5.14e-01    5.14e-01    5.14e-01    7.48e-01    7.48e-01
Vds:       9.00e-01    5.14e-01    1.52e-01    9.95e-01    1.01e+00
Vbs:       0.00e+00    0.00e+00    0.00e+00   -1.52e-01   -1.52e-01
Vth:       4.06e-01    4.07e-01    4.09e-01    4.51e-01    4.51e-01
Vdsat:     9.54e-02    9.43e-02    9.34e-02    2.22e-01    2.22e-01
Gm:        2.27e-03    7.89e-05    7.24e-04    1.49e-04    1.49e-04
Gds:       1.39e-05    5.60e-07    2.81e-05    1.07e-06    1.06e-06
Gmb        6.48e-04    2.25e-05    2.07e-04    3.85e-05    3.85e-05
Cbd:       0.00e+00    0.00e+00    0.00e+00    0.00e+00    0.00e+00
Cbs:       0.00e+00    0.00e+00    0.00e+00    0.00e+00    0.00e+00
Cgsov:     8.11e-14    2.87e-15    2.87e-14    1.77e-15    1.77e-15
Cgdov:     8.11e-14    2.87e-15    2.87e-14    1.77e-15    1.77e-15
Cgbov:     9.66e-19    9.66e-19    9.66e-19    9.66e-19    9.66e-19
dQgdVgb:   8.09e-13    2.86e-14    2.89e-13    1.80e-14    1.80e-14
dQgdVdb:  -7.91e-14   -2.80e-15   -3.11e-14   -1.72e-15   -1.72e-15
dQgdVsb:  -6.79e-13   -2.40e-14   -2.40e-13   -1.55e-14   -1.55e-14
dQddVgb:  -3.36e-13   -1.19e-14   -1.21e-13   -7.59e-15   -7.59e-15
dQddVdb:   8.00e-14    2.83e-15    3.13e-14    1.74e-15    1.74e-15
dQddVsb:   3.37e-13    1.19e-14    1.20e-13    7.56e-15    7.56e-15
dQbdVgb:  -1.37e-13   -4.86e-15   -4.56e-14   -2.80e-15   -2.80e-15
dQbdVdb:   2.37e-16    2.93e-18   -2.83e-15    3.58e-18    3.65e-18
dQbdVsb:  -7.61e-14   -2.67e-15   -2.78e-14   -1.39e-15   -1.39e-15

Name:        m5          m3          m4
Model:      cmosp       cmosp       cmosp
Id:        1.45e-04    2.30e-05    2.30e-05
Vgs:       2.47e-01    0.00e+00    1.10e-02
Vds:       9.00e-01    6.42e-01    6.53e-01
Vbs:       9.00e-01    6.42e-01    6.53e-01
Vth:      -4.18e-01   -4.19e-01   -4.19e-01
Vdsat:    -1.88e-01   -1.80e-01   -1.80e-01
Gm:        1.17e-03    1.95e-04    1.95e-04
Gds:       9.14e-06    1.71e-06    1.70e-06
Gmb        3.68e-04    6.12e-05    6.12e-05
Cbd:       0.00e+00    0.00e+00    0.00e+00
Cbs:       0.00e+00    0.00e+00    0.00e+00
Cgsov:     5.54e-14    9.80e-15    9.80e-15
Cgdov:     5.54e-14    9.80e-15    9.80e-15
Cgbov:     9.41e-19    9.41e-19    9.41e-19
dQgdVgb:   6.83e-13    1.21e-13    1.21e-13
dQgdVdb:  -5.43e-14   -9.63e-15   -9.62e-15
dQgdVsb:  -6.11e-13   -1.08e-13   -1.08e-13
dQddVgb:  -2.86e-13   -5.05e-14   -5.05e-14
dQddVdb:   5.48e-14    9.72e-15    9.72e-15
dQddVsb:   3.05e-13    5.38e-14    5.38e-14
dQbdVgb:  -1.12e-13   -1.98e-14   -1.98e-14
dQbdVdb:   5.41e-17   -1.60e-17   -1.39e-17
dQbdVsb:  -5.35e-14   -9.46e-15   -9.46e-15